


                               __________________________________________
                              |                                          |
                              |  NUMERICAL ELECTROMAGNETICS CODE (nec2c) |
                              |   Translated to 'C' in Double Precision  |
                              |__________________________________________|



                               ---------------- COMMENTS ----------------
                               2-Meter Stacked Yagi Array - 144 MHz
                               Two 11-element Yagis stacked at lambda/2 spacing
                               Height: 10 meters above ground
                               Feed: Single feedpoint with power divider
                               Designed for EME operation
                              



                               -------- STRUCTURE SPECIFICATION --------
                                     COORDINATES MUST BE INPUT IN
                                     METERS OR BE SCALED TO METERS
                                     BEFORE STRUCTURE INPUT IS ENDED

  WIRE                                                                                 SEG FIRST  LAST  TAG
   No:        X1         Y1         Z1         X2         Y2         Z2       RADIUS   No:   SEG   SEG  No:
     1    -0.72000   -0.52100   10.00000    0.72000   -0.52100   10.00000    0.00600     1     1     1    1
     2    -0.52000   -0.52100   10.00000    0.52000   -0.52100   10.00000    0.00600    11     2    12    2
     3    -0.65000   -0.29600   10.00000    0.65000   -0.29600   10.00000    0.00600     1    13    13    3
     4    -0.62000   -0.07100   10.00000    0.62000   -0.07100   10.00000    0.00600     1    14    14    4
     5    -0.60000    0.15400   10.00000    0.60000    0.15400   10.00000    0.00600     1    15    15    5
     6    -0.58000    0.37900   10.00000    0.58000    0.37900   10.00000    0.00600     1    16    16    6
     7    -0.56000    0.60400   10.00000    0.56000    0.60400   10.00000    0.00600     1    17    17    7
     8    -0.54000    0.82900   10.00000    0.54000    0.82900   10.00000    0.00600     1    18    18    8
     9    -0.52000    1.05400   10.00000    0.52000    1.05400   10.00000    0.00600     1    19    19    9
    10    -0.50000    1.27900   10.00000    0.50000    1.27900   10.00000    0.00600     1    20    20   10
    11    -0.48000    1.50400   10.00000    0.48000    1.50400   10.00000    0.00600     1    21    21   11
    12    -1.50000   -0.52100   10.00000    1.50000   -0.52100   10.00000    0.02500    15    22    36   12
    13    -0.72000    0.52100   10.00000    0.72000    0.52100   10.00000    0.00600     1    37    37   21
    14    -0.52000    0.52100   10.00000    0.52000    0.52100   10.00000    0.00600    11    38    48   22
    15    -0.65000    0.74600   10.00000    0.65000    0.74600   10.00000    0.00600     1    49    49   23
    16    -0.62000    0.97100   10.00000    0.62000    0.97100   10.00000    0.00600     1    50    50   24
    17    -0.60000    1.19600   10.00000    0.60000    1.19600   10.00000    0.00600     1    51    51   25
    18    -0.58000    1.42100   10.00000    0.58000    1.42100   10.00000    0.00600     1    52    52   26
    19    -0.56000    1.64600   10.00000    0.56000    1.64600   10.00000    0.00600     1    53    53   27
    20    -0.54000    1.87100   10.00000    0.54000    1.87100   10.00000    0.00600     1    54    54   28
    21    -0.52000    2.09600   10.00000    0.52000    2.09600   10.00000    0.00600     1    55    55   29
    22    -0.50000    2.32100   10.00000    0.50000    2.32100   10.00000    0.00600     1    56    56   30
    23    -0.48000    2.54600   10.00000    0.48000    2.54600   10.00000    0.00600     1    57    57   31
    24    -1.50000    0.52100   10.00000    1.50000    0.52100   10.00000    0.02500    15    58    72   32
    25     0.00000   -0.52100   10.00000    0.00000    0.52100   10.00000    0.00400     5    73    77   40
    26     0.00000    0.00000    0.00000    0.00000    0.00000   10.00000    0.02500    20    78    97   41

     GROUND PLANE SPECIFIED.
     WHERE WIRE ENDS TOUCH GROUND, CURRENT WILL BE INTERPOLATED TO IMAGE IN GROUND PLANE.


     TOTAL SEGMENTS USED: 97   SEGMENTS IN A SYMMETRIC CELL: 97   SYMMETRY FLAG: 0


                               ---------- SEGMENTATION DATA ----------
                                        COORDINATES IN METERS
                            I+ AND I- INDICATE THE SEGMENTS BEFORE AND AFTER I

   SEG    COORDINATES OF SEGM CENTER     SEGM    ORIENTATION ANGLES    WIRE    CONNECTION DATA   TAG
   No:       X         Y         Z      LENGTH     ALPHA      BETA    RADIUS    I-     I    I+   No:
     1    0.0000   -0.5210   10.0000    1.4400    0.0000    0.0000    0.0060     0     1     0     1
     2   -0.4727   -0.5210   10.0000    0.0945    0.0000    0.0000    0.0060     0     2     3     2
     3   -0.3782   -0.5210   10.0000    0.0945    0.0000    0.0000    0.0060     2     3     4     2
     4   -0.2836   -0.5210   10.0000    0.0945    0.0000    0.0000    0.0060     3     4     5     2
     5   -0.1891   -0.5210   10.0000    0.0945    0.0000    0.0000    0.0060     4     5     6     2
     6   -0.0945   -0.5210   10.0000    0.0945    0.0000    0.0000    0.0060     5     6     7     2
     7   -0.0000   -0.5210   10.0000    0.0945    0.0000    0.0000    0.0060     6     7     8     2
     8    0.0945   -0.5210   10.0000    0.0945    0.0000    0.0000    0.0060     7     8     9     2
     9    0.1891   -0.5210   10.0000    0.0945    0.0000    0.0000    0.0060     8     9    10     2
    10    0.2836   -0.5210   10.0000    0.0945    0.0000    0.0000    0.0060     9    10    11     2
    11    0.3782   -0.5210   10.0000    0.0945    0.0000    0.0000    0.0060    10    11    12     2
    12    0.4727   -0.5210   10.0000    0.0945    0.0000    0.0000    0.0060    11    12     0     2
    13    0.0000   -0.2960   10.0000    1.3000    0.0000    0.0000    0.0060     0    13     0     3
    14    0.0000   -0.0710   10.0000    1.2400    0.0000    0.0000    0.0060     0    14     0     4
    15    0.0000    0.1540   10.0000    1.2000    0.0000    0.0000    0.0060     0    15     0     5
    16    0.0000    0.3790   10.0000    1.1600    0.0000    0.0000    0.0060     0    16     0     6
    17    0.0000    0.6040   10.0000    1.1200    0.0000    0.0000    0.0060     0    17     0     7
    18    0.0000    0.8290   10.0000    1.0800    0.0000    0.0000    0.0060     0    18     0     8
    19    0.0000    1.0540   10.0000    1.0400    0.0000    0.0000    0.0060     0    19     0     9
    20    0.0000    1.2790   10.0000    1.0000    0.0000    0.0000    0.0060     0    20     0    10
    21    0.0000    1.5040   10.0000    0.9600    0.0000    0.0000    0.0060     0    21     0    11
    22   -1.4000   -0.5210   10.0000    0.2000    0.0000    0.0000    0.0250     0    22    23    12
    23   -1.2000   -0.5210   10.0000    0.2000    0.0000    0.0000    0.0250    22    23    24    12
    24   -1.0000   -0.5210   10.0000    0.2000    0.0000    0.0000    0.0250    23    24    25    12
    25   -0.8000   -0.5210   10.0000    0.2000    0.0000    0.0000    0.0250    24    25    26    12
    26   -0.6000   -0.5210   10.0000    0.2000    0.0000    0.0000    0.0250    25    26    27    12
    27   -0.4000   -0.5210   10.0000    0.2000    0.0000    0.0000    0.0250    26    27    28    12
    28   -0.2000   -0.5210   10.0000    0.2000    0.0000    0.0000    0.0250    27    28    29    12
    29   -0.0000   -0.5210   10.0000    0.2000    0.0000    0.0000    0.0250    28    29    30    12
    30    0.2000   -0.5210   10.0000    0.2000    0.0000    0.0000    0.0250    29    30    31    12
    31    0.4000   -0.5210   10.0000    0.2000    0.0000    0.0000    0.0250    30    31    32    12
    32    0.6000   -0.5210   10.0000    0.2000    0.0000    0.0000    0.0250    31    32    33    12
    33    0.8000   -0.5210   10.0000    0.2000    0.0000    0.0000    0.0250    32    33    34    12
    34    1.0000   -0.5210   10.0000    0.2000    0.0000    0.0000    0.0250    33    34    35    12
    35    1.2000   -0.5210   10.0000    0.2000    0.0000    0.0000    0.0250    34    35    36    12
    36    1.4000   -0.5210   10.0000    0.2000    0.0000    0.0000    0.0250    35    36     0    12
    37    0.0000    0.5210   10.0000    1.4400    0.0000    0.0000    0.0060     0    37     0    21
    38   -0.4727    0.5210   10.0000    0.0945    0.0000    0.0000    0.0060     0    38    39    22
    39   -0.3782    0.5210   10.0000    0.0945    0.0000    0.0000    0.0060    38    39    40    22
    40   -0.2836    0.5210   10.0000    0.0945    0.0000    0.0000    0.0060    39    40    41    22
    41   -0.1891    0.5210   10.0000    0.0945    0.0000    0.0000    0.0060    40    41    42    22
    42   -0.0945    0.5210   10.0000    0.0945    0.0000    0.0000    0.0060    41    42    43    22
    43   -0.0000    0.5210   10.0000    0.0945    0.0000    0.0000    0.0060    42    43    44    22
    44    0.0945    0.5210   10.0000    0.0945    0.0000    0.0000    0.0060    43    44    45    22
    45    0.1891    0.5210   10.0000    0.0945    0.0000    0.0000    0.0060    44    45    46    22
    46    0.2836    0.5210   10.0000    0.0945    0.0000    0.0000    0.0060    45    46    47    22
    47    0.3782    0.5210   10.0000    0.0945    0.0000    0.0000    0.0060    46    47    48    22
    48    0.4727    0.5210   10.0000    0.0945    0.0000    0.0000    0.0060    47    48     0    22
    49    0.0000    0.7460   10.0000    1.3000    0.0000    0.0000    0.0060     0    49     0    23
    50    0.0000    0.9710   10.0000    1.2400    0.0000    0.0000    0.0060     0    50     0    24
    51    0.0000    1.1960   10.0000    1.2000    0.0000    0.0000    0.0060     0    51     0    25
    52    0.0000    1.4210   10.0000    1.1600    0.0000    0.0000    0.0060     0    52     0    26
    53    0.0000    1.6460   10.0000    1.1200    0.0000    0.0000    0.0060     0    53     0    27
    54    0.0000    1.8710   10.0000    1.0800    0.0000    0.0000    0.0060     0    54     0    28
    55    0.0000    2.0960   10.0000    1.0400    0.0000    0.0000    0.0060     0    55     0    29
    56    0.0000    2.3210   10.0000    1.0000    0.0000    0.0000    0.0060     0    56     0    30
    57    0.0000    2.5460   10.0000    0.9600    0.0000    0.0000    0.0060     0    57     0    31
    58   -1.4000    0.5210   10.0000    0.2000    0.0000    0.0000    0.0250     0    58    59    32
    59   -1.2000    0.5210   10.0000    0.2000    0.0000    0.0000    0.0250    58    59    60    32
    60   -1.0000    0.5210   10.0000    0.2000    0.0000    0.0000    0.0250    59    60    61    32
    61   -0.8000    0.5210   10.0000    0.2000    0.0000    0.0000    0.0250    60    61    62    32
    62   -0.6000    0.5210   10.0000    0.2000    0.0000    0.0000    0.0250    61    62    63    32
    63   -0.4000    0.5210   10.0000    0.2000    0.0000    0.0000    0.0250    62    63    64    32
    64   -0.2000    0.5210   10.0000    0.2000    0.0000    0.0000    0.0250    63    64    65    32
    65   -0.0000    0.5210   10.0000    0.2000    0.0000    0.0000    0.0250    64    65    66    32
    66    0.2000    0.5210   10.0000    0.2000    0.0000    0.0000    0.0250    65    66    67    32
    67    0.4000    0.5210   10.0000    0.2000    0.0000    0.0000    0.0250    66    67    68    32
    68    0.6000    0.5210   10.0000    0.2000    0.0000    0.0000    0.0250    67    68    69    32
    69    0.8000    0.5210   10.0000    0.2000    0.0000    0.0000    0.0250    68    69    70    32
    70    1.0000    0.5210   10.0000    0.2000    0.0000    0.0000    0.0250    69    70    71    32
    71    1.2000    0.5210   10.0000    0.2000    0.0000    0.0000    0.0250    70    71    72    32
    72    1.4000    0.5210   10.0000    0.2000    0.0000    0.0000    0.0250    71    72     0    32
    73    0.0000   -0.4168   10.0000    0.2084    0.0000   90.0000    0.0040     0    73    74    40
    74    0.0000   -0.2084   10.0000    0.2084    0.0000   90.0000    0.0040    73    74    75    40
    75    0.0000    0.0000   10.0000    0.2084    0.0000   90.0000    0.0040    74    75    76    40
    76    0.0000    0.2084   10.0000    0.2084    0.0000   90.0000    0.0040    75    76    77    40
    77    0.0000    0.4168   10.0000    0.2084    0.0000   90.0000    0.0040    76    77     0    40
    78    0.0000    0.0000    0.2500    0.5000   90.0000    0.0000    0.0250    78    78    79    41
    79    0.0000    0.0000    0.7500    0.5000   90.0000    0.0000    0.0250    78    79    80    41
    80    0.0000    0.0000    1.2500    0.5000   90.0000    0.0000    0.0250    79    80    81    41
    81    0.0000    0.0000    1.7500    0.5000   90.0000    0.0000    0.0250    80    81    82    41
    82    0.0000    0.0000    2.2500    0.5000   90.0000    0.0000    0.0250    81    82    83    41
    83    0.0000    0.0000    2.7500    0.5000   90.0000    0.0000    0.0250    82    83    84    41
    84    0.0000    0.0000    3.2500    0.5000   90.0000    0.0000    0.0250    83    84    85    41
    85    0.0000    0.0000    3.7500    0.5000   90.0000    0.0000    0.0250    84    85    86    41
    86    0.0000    0.0000    4.2500    0.5000   90.0000    0.0000    0.0250    85    86    87    41
    87    0.0000    0.0000    4.7500    0.5000   90.0000    0.0000    0.0250    86    87    88    41
    88    0.0000    0.0000    5.2500    0.5000   90.0000    0.0000    0.0250    87    88    89    41
    89    0.0000    0.0000    5.7500    0.5000   90.0000    0.0000    0.0250    88    89    90    41
    90    0.0000    0.0000    6.2500    0.5000   90.0000    0.0000    0.0250    89    90    91    41
    91    0.0000    0.0000    6.7500    0.5000   90.0000    0.0000    0.0250    90    91    92    41
    92    0.0000    0.0000    7.2500    0.5000   90.0000    0.0000    0.0250    91    92    93    41
    93    0.0000    0.0000    7.7500    0.5000   90.0000    0.0000    0.0250    92    93    94    41
    94    0.0000    0.0000    8.2500    0.5000   90.0000    0.0000    0.0250    93    94    95    41
    95    0.0000    0.0000    8.7500    0.5000   90.0000    0.0000    0.0250    94    95    96    41
    96    0.0000    0.0000    9.2500    0.5000   90.0000    0.0000    0.0250    95    96    97    41
    97    0.0000    0.0000    9.7500    0.5000   90.0000    0.0000    0.0250    96    97     0    41



  DATA CARD No:   1 GN   2     0     0     0  1.30000E+01  5.00000E-03  0.00000E+00  0.00000E+00  0.00000E+00  0.00000E+00
  DATA CARD No:   2 FR   0     1     0     0  1.44000E+02  0.00000E+00  0.00000E+00  0.00000E+00  0.00000E+00  0.00000E+00
  DATA CARD No:   3 EX   0    40     3     0  1.00000E+00  0.00000E+00  0.00000E+00  0.00000E+00  0.00000E+00  0.00000E+00
  DATA CARD No:   4 RP   0    37    73  1000  1.00000E+01  0.00000E+00  5.00000E+00  5.00000E+00  0.00000E+00  0.00000E+00


                               --------- FREQUENCY --------
                                FREQUENCY : 1.4400E+02 MHz
                                WAVELENGTH: 2.0819E+00 Mtr

                        APPROXIMATE INTEGRATION EMPLOYED FOR SEGMENTS 
                        THAT ARE MORE THAN 1.000 WAVELENGTHS APART


                          ------ STRUCTURE IMPEDANCE LOADING ------
                                 THIS STRUCTURE IS NOT LOADED


                            -------- ANTENNA ENVIRONMENT --------
                            FINITE GROUND - SOMMERFELD SOLUTION
                            RELATIVE DIELECTRIC CONST: 13.000
                            CONDUCTIVITY:  5.000E-03 MHOS/METER
                            COMPLEX DIELECTRIC CONSTANT:  1.3000E+01-6.2417E-01j


                             ---------- MATRIX TIMING ----------
                               FILL: 0 msec  FACTOR: 10 msec


                        --------- ANTENNA INPUT PARAMETERS ---------
  TAG   SEG       VOLTAGE (VOLTS)         CURRENT (AMPS)         IMPEDANCE (OHMS)        ADMITTANCE (MHOS)     POWER
  No:   No:     REAL      IMAGINARY     REAL      IMAGINARY     REAL      IMAGINARY    REAL       IMAGINARY   (WATTS)
   40    75  1.0000E+00  0.0000E+00  5.5770E-03 -5.0605E-03  9.8341E+01  8.9233E+01  5.5770E-03 -5.0605E-03  2.7885E-03


                           -------- CURRENTS AND LOCATION --------
                                  DISTANCES IN WAVELENGTHS

   SEG  TAG    COORDINATES OF SEGM CENTER     SEGM    ------------- CURRENT (AMPS) -------------
   No:  No:       X         Y         Z      LENGTH     REAL      IMAGINARY    MAGN        PHASE
     1    1    0.0000   -0.2502    4.8032   0.69166 -2.8156E-05  1.0929E-05  3.0202E-05  158.787
     2    2   -0.2271   -0.2502    4.8032   0.04541 -1.5341E-03  1.4238E-03  2.0930E-03  137.136
     3    2   -0.1816   -0.2502    4.8032   0.04541 -4.4093E-03  4.2628E-03  6.1330E-03  135.967
     4    2   -0.1362   -0.2502    4.8032   0.04541 -7.2841E-03  7.2738E-03  1.0294E-02  135.040
     5    2   -0.0908   -0.2502    4.8032   0.04541 -7.4582E-03  7.5554E-03  1.0616E-02  134.629
     6    2   -0.0454   -0.2502    4.8032   0.04541 -4.2646E-03  4.3838E-03  6.1159E-03  134.210
     7    2   -0.0000   -0.2502    4.8032   0.04541  2.0904E-04 -7.2875E-05  2.2137E-04  -19.220
     8    2    0.0454   -0.2502    4.8032   0.04541  4.6578E-03 -4.5205E-03  6.4908E-03  -44.143
     9    2    0.0908   -0.2502    4.8032   0.04541  7.7801E-03 -7.6661E-03  1.0922E-02  -44.577
    10    2    0.1362   -0.2502    4.8032   0.04541  7.4980E-03 -7.3450E-03  1.0496E-02  -44.410
    11    2    0.1816   -0.2502    4.8032   0.04541  4.5040E-03 -4.2909E-03  6.2207E-03  -43.612
    12    2    0.2271   -0.2502    4.8032   0.04541  1.5541E-03 -1.4276E-03  2.1102E-03  -42.571
    13    3    0.0000   -0.1422    4.8032   0.62442  6.0002E-07 -3.2102E-07  6.8050E-07  -28.148
    14    4    0.0000   -0.0341    4.8032   0.59560 -4.6486E-07  6.2587E-08  4.6906E-07  172.332
    15    5    0.0000    0.0740    4.8032   0.57638 -7.3492E-07  3.7752E-07  8.2621E-07  152.811
    16    6    0.0000    0.1820    4.8032   0.55717 -1.6314E-06  1.4839E-06  2.2053E-06  137.711
    17    7    0.0000    0.2901    4.8032   0.53796 -1.4835E-06  1.4894E-06  2.1021E-06  134.886
    18    8    0.0000    0.3982    4.8032   0.51875 -4.9566E-07  5.2756E-07  7.2387E-07  133.215
    19    9    0.0000    0.5063    4.8032   0.49953 -1.4663E-06 -1.6948E-06  2.2411E-06 -130.866
    20   10    0.0000    0.6143    4.8032   0.48032  1.4910E-06  1.0109E-07  1.4944E-06    3.879
    21   11    0.0000    0.7224    4.8032   0.46111  1.0679E-06  6.3834E-09  1.0679E-06    0.342
    22   12   -0.6724   -0.2502    4.8032   0.09606 -1.4515E-03  1.4075E-03  2.0218E-03  135.881
    23   12   -0.5764   -0.2502    4.8032   0.09606 -2.8938E-03  2.5144E-03  3.8336E-03  139.013
    24   12   -0.4803   -0.2502    4.8032   0.09606 -3.2026E-03  2.3541E-03  3.9747E-03  143.682
    25   12   -0.3843   -0.2502    4.8032   0.09606 -2.4175E-03  1.1862E-03  2.6928E-03  153.864
    26   12   -0.2882   -0.2502    4.8032   0.09606 -5.0953E-04 -8.1017E-04  9.5708E-04 -122.167
    27   12   -0.1921   -0.2502    4.8032   0.09606  4.0843E-03 -5.0667E-03  6.5079E-03  -51.128
    28   12   -0.0961   -0.2502    4.8032   0.09606  8.2454E-03 -9.0502E-03  1.2243E-02  -47.664
    29   12   -0.0000   -0.2502    4.8032   0.09606 -1.8017E-04  6.1219E-05  1.9028E-04  161.233
    30   12    0.0961   -0.2502    4.8032   0.09606 -8.5052E-03  9.1363E-03  1.2482E-02  132.951
    31   12    0.1921   -0.2502    4.8032   0.09606 -4.1292E-03  5.0759E-03  6.5433E-03  129.128
    32   12    0.2882   -0.2502    4.8032   0.09606  5.1473E-04  8.1018E-04  9.5986E-04   57.571
    33   12    0.3843   -0.2502    4.8032   0.09606  2.4231E-03 -1.1818E-03  2.6960E-03  -26.000
